"Freq [GHz]","mag(S(2,1)) [] - rhe='5.5mm'","mag(S(2,1)) [] - rhe='6mm'","mag(S(2,1)) [] - rhe='6.5mm'","mag(S(2,1)) [] - rhe='7mm'","mag(S(2,1)) [] - rhe='7.5mm'","mag(S(2,1)) [] - rhe='8mm'","mag(S(2,1)) [] - rhe='8.5mm'","mag(S(2,1)) [] - rhe='9mm'","mag(S(2,1)) [] - rhe='9.5mm'","mag(S(2,1)) [] - rhe='10mm'","mag(S(2,1)) [] - rhe='10.5mm'","mag(S(2,1)) [] - rhe='11.5mm'"
0.001,0.999999936636414,0.999999942814527,0.999999947051743,0.99999994958365,0.99999995589518,0.999999956477941,0.999999961300732,0.999999961592067,0.999999966298106,0.999999969749545,0.999999938012528,0.999999973458815
0.004002002002002,0.999999695830146,0.999999725655275,0.99999974754043,0.999999766123198,0.999999786587387,0.999999798848799,0.999999814719608,0.999999824793925,0.999999837689124,0.999999849012367,0.999999823944483,0.99999986879636
0.007004004004004,0.999999387953714,0.999999445874127,0.999999489238105,0.999999527189374,0.999999564832618,0.999999591098664,0.999999620466095,0.99999964287257,0.999999665657163,0.999999686629975,0.999999669674886,0.999999725916622
0.010006006006006,0.999999009577311,0.999999100886053,0.999999169520277,0.999999230042818,0.999999288197973,0.999999330981773,0.999999376516754,0.999999413956346,0.999999448040011,0.999999480477715,0.999999473181893,0.999999543177514
0.013008008008008,0.999998550816656,0.999998681609177,0.99999878020276,0.999998867367576,0.999998949931664,0.999999012238323,0.999999077064322,0.999999132621668,0.999999180005479,0.999999226083858,0.999999230282694,0.999999316686642
0.01601001001001,0.999998012660535,0.999998189012616,0.999998322203223,0.999998440016907,0.999998550857148,0.99999863568113,0.999998722896796,0.999998799655263,0.999998862266061,0.999998924155947,0.999998941661064,0.999999047130521
0.019012012012012,0.999997405224648,0.999997632143491,0.999997803764774,0.99999795549108,0.999998097841898,0.999998207645001,0.999998319858633,0.999998420482316,0.999998499858836,0.999998579377486,0.99999861170041,0.999998738478788
0.022014014014014,0.99999673384513,0.999997015772171,0.999997229231987,0.999997417742365,0.999997594502948,0.999997731463887,0.999997871023467,0.999997997952361,0.999998095429038,0.999998194205226,0.999998242698583,0.999998392808613
0.025016016016016,0.999996000501821,0.999996341668599,0.999996600216717,0.999996828238055,0.999997042183006,0.999997208374383,0.999997377530563,0.999997533119332,0.999997649955964,0.999997769547365,0.999997835504699,0.999998010885731
0.028018018018018,0.999995205198208,0.999995609837985,0.999995916725279,0.999996186987012,0.999996440891627,0.999996638385352,0.999996839388469,0.999997025989334,0.999997163447899,0.999997305411234,0.999997390126265,0.999997592716289
0.03102002002002,0.999994346968844,0.999994819422026,0.999995177979784,0.999995493287034,0.99999578998971,0.999996020909623,0.99999625605808,0.99999647606231,0.99999663544505,0.99999680137125,0.999996906167301,0.999997137944047
0.034022022022022,0.999993424506212,0.999993969259186,0.999994382928319,0.999994746188738,0.999995088613954,0.999995355155285,0.999995626813379,0.999995882666714,0.999996065330016,0.999996256857348,0.999996383098092,0.999996646094347
0.037024024024024,0.999992436506117,0.999993058193104,0.999993530525525,0.999993944750452,0.999994335909844,0.999994640340195,0.999994950938973,0.999995245142462,0.999995452497345,0.999995671312237,0.999995820402073,0.999996116706597
0.040026026026026,0.99999138183483,0.999992085221626,0.999992619868001,0.999993088161079,0.99999353114378,0.999993875795044,0.999994227824817,0.999994562928483,0.999994796434571,0.999995044266365,0.999995217645734,0.99999554939709
0.043028028028028,0.999990259594131,0.999991049554641,0.999991650246714,0.999992175787526,0.999992673746228,0.999993061002884,0.999993457002409,0.999993835596005,0.999994096752926,0.999994375366186,0.999994574504867,0.999994943882382
0.04603003003003,0.999989069132714,0.999989950624039,0.999990621155864,0.999991207182597,0.999991763318756,0.9999921956054,0.999992638150386,0.999993062853532,0.999993353191822,0.999993664378123,0.999993890768134,0.999994299982248
0.049032032032032,0.999987810032094,0.999988788070949,0.99998953228112,0.999990182074168,0.999990799623977,0.999991279393507,0.999991771085715,0.999992244538508,0.999992565611034,0.999992911181144,0.999993166330024,0.999993617613118
0.052034034034034,0.999986482082365,0.999987561723945,0.99998838347967,0.999989100346957,0.999989782568775,0.999990312291779,0.999990855749231,0.999991380603795,0.999991733978068,0.999992115754935,0.999992401179704,0.999992896777847
0.055036036036036,0.999985085255615,0.999986271575201,0.999987174758433,0.99998796202264,0.999988712186033,0.999989294341525,0.999989892189964,0.999990471103043,0.999990858354547,0.99999127816716,0.999991595389057,0.999992137554798
0.058038038038038,0.999983619680669,0.999984917757852,0.999985906253379,0.999986767240995,0.999987588617314,0.999988225684779,0.99998888055032,0.99998951617689,0.999989938883352,0.999990398561464,0.999990749101411,0.999991340087563
0.06104004004004,0.999982085620609,0.999983500525847,0.999984578211147,0.999985516243142,0.999986412097485,0.999987106550064,0.999987821052913,0.999988516040692,0.999988975777207,0.99998947714682,0.999989862521538,0.99999050457586
0.064042042042042,0.999980483453452,0.999982020236628,0.99998319097323,0.999984209357122,0.999985182941469,0.99998593724016,0.999986713989241,0.999987470973982,0.999987969308866,0.999988514188367,0.999988935907054,0.999989631267694
0.067044044044044,0.999978813655789,0.999980477336484,0.999981744962593,0.999982846985694,0.99998390153305,0.999984718121735,0.999985559710099,0.999986381311537,0.999986919802784,0.999987509999647,0.999987969561126,0.999988720452723
0.070046046046046,0.999977076789075,0.999978872348241,0.999980240672444,0.999981429596087,0.999982568315452,0.999983449616639,0.999984358617506,0.999985247435861,0.999985827628124,0.999986464936062,0.999986963826321,0.999987772456639
0.0730480480480481,0.999975273488125,0.999977205860954,0.999978678656806,0.999979957711391,0.999981183783424,0.999982132194569,0.99998311115792,0.999984069770854,0.999984693192836,0.99998537938935,0.999985919079415,0.999986787636431
0.0760500500500501,0.999973404451435,0.999975478521216,0.99997705952257,0.999978431903294,0.999979748476559,0.999980766366883,0.999981817816495,0.999982848776449,0.99998351693866,0.999984253782904,0.999984835726975,0.999985766376343
0.0790520520520521,0.999971470432982,0.999973691025791,0.999975383922748,0.999976852785912,0.999978262973605,0.999979352681322,0.999980479112178,0.999981584944036,0.999982299336842,0.999983088567758,0.99998371420158,0.999984709084413
0.0820540540540541,0.999969472235206,0.999971844115299,0.999973652550696,0.999975221010494,0.999976727887583,0.999977891717478,0.999979095593493,0.999980278792514,0.999981040884432,0.999981884219112,0.999982554958539,0.999983616189448
0.0850560560560561,0.999967410702937,0.999969938568753,0.999971866135095,0.999973537260815,0.999975143861526,0.999976384082828,0.999977667834855,0.999978930864833,0.999979742101042,0.999980641233287,0.999981358473002,0.999982488138369
0.0880580580580581,0.99996528671807,0.99996797519875,0.999970025435533,0.999971802249124,0.999973511564731,0.999974830409247,0.999976196433304,0.999977541724934,0.99997840352597,0.999979360125009,0.999980125237391,0.99998132539383
0.0910600600600601,0.999963101194822,0.999965954847197,0.999968131238576,0.999970016712523,0.999971831689398,0.999973231349869,0.999974682005576,0.999976111954985,0.999977025715592,0.999978041424952,0.999978855759064,0.999980128432054
0.0940620620620621,0.999960855075465,0.99996387838144,0.999966184354203,0.999968181409676,0.999970104947571,0.999971587576235,0.999973125185434,0.99997464215287,0.999975609240994,0.999976685677492,0.999977550558176,0.999978897740839
0.0970640640640641,0.999958549326409,0.999961746690728,0.999964185612534,0.999966297117795,0.999968332068334,0.999969899775662,0.999971526621188,0.99997313292985,0.999974154685757,0.99997529343861,0.999976210165678,0.999977633817696
0.100066066066066,0.999956191569745,0.999959561566183,0.999962136682024,0.999964365391582,0.999966514504657,0.99996816931286,0.999969887594684,0.999971585492314,0.999972663192488,0.99997386578975,0.999974835609017,0.999976337615953
0.103068068068068,0.999954070223394,0.999957359122593,0.999960071216122,0.999962417519019,0.999964681456739,0.999966423567828,0.999968233766808,0.999970023993931,0.999971157494233,0.999972424141483,0.999973447156156,0.999975027796012
0.10607007007007,0.99995189020628,0.999955097715623,0.999957950575415,0.999960417735449,0.999962799678412,0.99996463147319,0.999966536120708,0.999968421201266,0.999969612049717,0.999970944517429,0.999972022176184,0.999973683617382
0.109072072072072,0.999949651868443,0.999952777867494,0.999955775260222,0.999958366523329,0.999960869634073,0.999962793476462,0.999964795088159,0.999966777528642,0.999968027264677,0.999969427312883,0.999970561053878,0.999972305451552
0.112074074074074,0.999947355569672,0.999950400113479,0.999953545783397,0.999956264377235,0.999958891799797,0.999960910036432,0.999963011111817,0.999965093400832,0.999966403555087,0.999967872933117,0.999969064183729,0.999970893679387
0.115076076076076,0.999945001679479,0.999947965001746,0.999951262670184,0.999954111803715,0.999956866663196,0.99995898162303,0.999961184645096,0.999963369252935,0.999964741347041,0.999966281793263,0.999967531969829,0.999969448691024
0.118078078078078,0.999942590577072,0.999945473093201,0.999948926458067,0.999951909321149,0.99995479472329,0.999957008717195,0.999959316152045,0.999961605530255,0.999963041076634,0.999964654318204,0.999965964825761,0.999967970885758
0.12108008008008,0.999940122651329,0.999942924961318,0.99994653769661,0.999949657459599,0.99995267649036,0.999954991810741,0.999957406107212,0.999959802688183,0.999961303189844,0.999962990942447,0.999964363174485,0.999966460671938
0.124082082082082,0.999937598300765,0.999940321191975,0.999944096947302,0.999947356760656,0.999950512485802,0.999952931406219,0.999955454995515,0.999957961192059,0.999959528142401,0.999961292110009,0.999962727448218,0.999964918466844
0.127084084084084,0.999935017933505,0.999937662383282,0.999941604783394,0.999945007777291,0.999948303241983,0.999950828016775,0.999953463312105,0.999956081517052,0.999957716399669,0.999959558274288,0.999961058088314,0.999963344696579
0.130086086086086,0.999932381967256,0.999934949145407,0.999939061789735,0.999942611073691,0.999946049302091,0.999948682166008,0.999951431562229,0.999954164148023,0.999955868436508,0.999957789897944,0.999959355545144,0.999961739795947
0.133088088088088,0.999929690829268,0.999932182100401,0.999936468562606,0.999940167225106,0.999943751219977,0.99994649438782,0.999949360261089,0.999952209579388,0.999953984737149,0.999955987452761,0.999957620277967,0.999960104208329
0.13609009009009,0.999926944956311,0.999929361882015,0.999933825709545,0.999937676817681,0.999941409560005,0.999944265226274,0.999947249933697,0.999950218314986,0.999952065795054,0.999954151419526,0.999955852754807,0.999958438385565
0.139092092092092,0.999924144794634,0.999926489135518,0.99993113384918,0.999935140448296,0.999939024896891,0.999941995235435,0.999945101114733,0.999948190867936,0.999950112112783,0.999952282287888,0.999954053452321,0.999956742787825
0.142094094094094,0.999921290799936,0.999923564517511,0.999928393611047,0.99993255872439,0.99993659781554,0.99993968497922,0.999942914348391,0.999946127760492,0.999948124201856,0.999950380556226,0.999952222855666,0.999955017883481
0.145096096096096,0.999918383437327,0.999920588695742,0.999925605635417,0.999929932263799,0.999934128910885,0.999937335031242,0.999940690188234,0.999944029523905,0.999946102582604,0.999948446731511,0.999950361458365,0.999953264148979
0.148098098098098,0.999915423181296,0.999917562348909,0.999922770573111,0.999927261694575,0.999931618787719,0.999934945974647,0.999938429197037,0.99994189669827,0.999944047784036,0.999946481329163,0.999948469762174,0.999951482068707
0.1511001001001,0.99991241051567,0.999914486166471,0.999919889085316,0.999924547654817,0.999929068060527,0.999932518401956,0.999936131946631,0.99993972983238,0.999941960343684,0.999944484872913,0.999946548276939,0.999949672134854
0.154102102102102,0.999909345933578,0.999911360848452,0.999916961843403,0.999921790792487,0.999926477353315,0.9999300529149,0.99993379901775,0.99993752948357,0.99993984080746,0.999942457894654,0.999944597520457,0.999947834847284
0.157104104104104,0.999906229937414,0.999908187105238,0.999913989528734,0.999918991765233,0.999923847299437,0.999927550124256,0.999931430999864,0.999935296217571,0.999937689729501,0.999940400934296,0.999942618018333,0.999945970713389
0.160106106106106,0.999903063038791,0.999904965657381,0.999910972832474,0.999916151240205,0.999921178541417,0.999925010649675,0.999929028491023,0.999933030608348,0.999935507672024,0.999938314539619,0.999940610303836,0.99994408024795
0.163108108108108,0.999899845758508,0.999901697235394,0.999907912455396,0.999913269893871,0.999918471730777,0.999922435119514,0.999926592097691,0.999930733237943,0.999933295205161,0.999936199266118,0.999938574917751,0.999942163973001
0.16611011011011,0.999896578626503,0.999898382579548,0.999904809107689,0.999910348411827,0.999915727527848,0.999919824170663,0.999924122434576,0.999928404696318,0.999931052906814,0.999934055676856,0.999936512408229,0.999940222417673
0.169112112112112,0.999893262181809,0.999895022439659,0.999901663508757,0.999907387488611,0.999912946601598,0.999917178448372,0.999921620124466,0.99992604558119,0.999928781362486,0.999931884342302,0.999934423330639,0.99993825611806
0.172114114114114,0.999889896972515,0.999891617574888,0.999898476387024,0.999904387827512,0.999910129629441,0.999914498606075,0.999919085798058,0.999923656497872,0.999926481165129,0.999929685840181,0.999932308247414,0.999936265617059
0.175116116116116,0.999886483555715,0.999888168753522,0.999895248479729,0.999901350140374,0.999907277297053,0.999911785305205,0.999916520093786,0.9999212380591,0.999924152914976,0.999927460755311,0.999930167727896,0.999934251464232
0.178118118118118,0.999883022497469,0.999884676752766,0.999891980532727,0.999898275147403,0.999904390298186,0.999909039215025,0.999913923657645,0.999918790884872,0.999921797219383,0.999925209679447,0.999928002348181,0.999932214215644
0.18112012012012,0.999879514372748,0.999881142358527,0.999888673300283,0.999895163576971,0.999901469334478,0.999906261012438,0.999911297143016,0.99991631560228,0.999919414692654,0.999922933211114,0.99992581269096,0.999930154433715
0.184122122122122,0.99987595976539,0.9998775663652,0.999885327544864,0.999892016165419,0.999898515115262,0.999903451381805,0.999908641210491,0.999913812845332,0.999917005955885,0.999920631955448,0.999923599345361,0.999928072687065
0.187124124124124,0.999872359268054,0.999873949575448,0.999881944036938,0.999888833656851,0.99989552835737,0.999900611014763,0.999905956527692,0.999911283254787,0.999914571636786,0.999918306524027,0.999921362906788,0.999925969550355
0.190126126126126,0.99986871348216,0.999870292799986,0.999878523554755,0.99988561680294,0.999892509784946,0.999897740610036,0.999903243769092,0.999908727477979,0.999912112369517,0.999915957534707,0.999919103976755,0.999923845604131
0.193128128128128,0.999865023017846,0.999866596857357,0.999875066884146,0.999882366362721,0.999889460129242,0.999894840873246,0.99990050361583,0.999906146168639,0.999909628794509,0.999913585611454,0.999916823162726,0.999921701434663
0.19613013013013,0.999861288493912,0.999862862573718,0.999871574818306,0.99987908310239,0.999886380128426,0.999891912516725,0.999897736755532,0.999903539986724,0.999907121558298,0.999911191384172,0.999914521077947,0.999919537633785
0.199132132132132,0.999857510537767,0.99985909078261,0.999868048157585,0.999875767795095,0.999883270527384,0.999888956259324,0.999894943882122,0.999900909598232,0.999904591313346,0.999908775488532,0.999912198341279,0.999917354798732
0.202134134134134,0.999853689785371,0.999855282324741,0.99986448770927,0.999872421220731,0.999880132077518,0.999885972826221,0.999892125695637,0.99989825567503,0.999902038717863,0.999906338565801,0.999909855577033,0.999915153531976
0.205136136136136,0.999849826881183,0.999851438047757,0.999860894287371,0.999869044165733,0.999876965536546,0.999882962948727,0.999889282902043,0.999895578894667,0.999899464435637,0.999903881262668,0.999907493414794,0.999912934441059
0.208138138138138,0.9998459224781,0.999847558806019,0.999857268712409,0.999865637422866,0.999873771668298,0.999879927364091,0.999886416213043,0.999892879940196,0.999896869135845,0.999901404231069,0.999905112489257,0.999910698138431
0.21114014014014,0.999841977237401,0.999843645460381,0.999853611811196,0.999862201791019,0.99987055124252,0.999876866815305,0.999883526345886,0.99989015949999,0.999894253492882,0.999898908128009,0.999902713440049,0.99990844524128
0.214142142142142,0.999837991828685,0.999839698877956,0.999849924416615,0.999858738074987,0.999867305034659,0.999873782050909,0.999880614023182,0.999887418267559,0.999891618186176,0.999896393615387,0.999900296911561,0.99990617637136
0.217144144144144,0.999833966929811,0.999835719931896,0.999846207367409,0.999855247085268,0.999864033825669,0.99987067382479,0.999877679972703,0.999884656941363,0.999888963900006,0.999893861359816,0.99989786355277,0.999903892154828
0.220146146146146,0.999829903226836,0.999831709501161,0.999842461507956,0.999851729637844,0.999860738401799,0.999867542895987,0.999874724927198,0.999881876224627,0.999886291323319,0.999891312032445,0.999895414017064,0.999901593222066
0.223148148148148,0.999825801413951,0.999827668470293,0.999838687688051,0.999848186553973,0.999857419554387,0.99986439002849,0.999871749624195,0.999879076825156,0.99988360114955,0.999888746308776,0.999892948962068,0.999899280207515
0.22615015015015,0.999821662193412,0.999823597729189,0.99983488676269,0.999844618659975,0.999854078079658,0.999861215991039,0.999868754805805,0.999876259455144,0.999880894076431,0.999886164868487,0.999890469049465,0.999896953749498
0.229152152152152,0.999817486275483,0.999819498172869,0.999831059591846,0.999841026787014,0.999850714778507,0.999858021556927,0.999865741218534,0.99987342483099,0.99987817080581,0.999883568395245,0.999887974944818,0.999894614490046
0.232154154154154,0.999813274378359,0.999815370701252,0.999827207040249,0.999837411770889,0.999847330456303,0.999854807503795,0.999862709613079,0.999870573673104,0.999875432043461,0.999880957576528,0.999885467317392,0.999892263074729
0.235156156156156,0.999809027228102,0.999811216218927,0.999823329977167,0.999833774451819,0.999843925922669,0.999851574613432,0.999859660744138,0.999867706705721,0.999872678498903,0.999878333103437,0.999882946839974,0.999889900152474
0.238158158158158,0.999804745558569,0.999807035634922,0.999819429276186,0.999830115674223,0.99984050199128,0.999848323671573,0.999856595370212,0.99986482465671,0.999869910885206,0.999875695670514,0.999880414188691,0.99988752637539
0.24116016016016,0.999800430111344,0.999802829862481,0.999815505814989,0.999826436286512,0.999837059479651,0.999845055467696,0.999853514253405,0.999861928257381,0.999867129918805,0.999873045975556,0.999877870042832,0.999885142398596
0.244162162162162,0.99979608163566,0.999798599818833,0.999811560475132,0.999822737140869,0.999833599208929,0.999841770794819,0.999850418159231,0.999859018242298,0.999864336319313,0.99987038471943,0.999875315084663,0.999882748880037
0.247164164164164,0.999791700888325,0.999794346424965,0.999807594141831,0.999819019093037,0.999830122003682,0.999838470449298,0.99984730785641,0.999856095349083,0.999861530809331,0.999867712605889,0.99987274999925,0.999880346480311
0.250166166166166,0.999787288633652,0.999790070605396,0.999803607703734,0.999815283002102,0.999826628691692,0.999835155230622,0.999844184116677,0.999853160318227,0.999858714114257,0.999865030341381,0.999870175474269,0.999877935862488
