"Freq [GHz]","mag(S(2,1)) [] - rhe='5.5mm'","mag(S(2,1)) [] - rhe='6mm'","mag(S(2,1)) [] - rhe='6.5mm'","mag(S(2,1)) [] - rhe='7mm'","mag(S(2,1)) [] - rhe='7.5mm'","mag(S(2,1)) [] - rhe='8mm'","mag(S(2,1)) [] - rhe='8.5mm'","mag(S(2,1)) [] - rhe='9mm'","mag(S(2,1)) [] - rhe='9.5mm'","mag(S(2,1)) [] - rhe='10mm'","mag(S(2,1)) [] - rhe='10.5mm'","mag(S(2,1)) [] - rhe='11.5mm'"
0.001,0.999999909605454,0.999999882118312,0.999999837664618,0.99999978400177,0.999999707402938,0.999999581558162,0.999999393444863,0.999999085137505,0.999998564752119,0.999997503171483,0.999994815061288,0.883493975020495
0.004002002002002,0.999999481753584,0.99999917343606,0.999998640402514,0.999997984804227,0.999996950562159,0.999995272271277,0.999992626103911,0.99998827852852,0.999980707993298,0.999965032029135,0.999925190942995,0.883478384122801
0.007004004004004,0.999998833850642,0.999997953846125,0.999996410685138,0.99999449997566,0.999991453585294,0.999986488888117,0.999978619382368,0.999965666909119,0.999943038289573,0.999896112036941,0.999776901699051,0.883444170120232
0.010006006006006,0.999997965432445,0.999996230116666,0.999993170483107,0.999989370002248,0.999983291308605,0.99997337100456,0.99995762431904,0.9999317054236,0.999886415918875,0.999792596184029,0.999555015301514,0.883391324341051
0.013008008008008,0.999996899544202,0.999994051608908,0.999989006012561,0.99998272325645,0.999972659693953,0.99995622728891,0.999930137099082,0.999887220664384,0.999812296088658,0.999657429200376,0.99926713262961,0.883319857739485
0.01601001001001,0.999995598998386,0.999991382564561,0.999983903299159,0.999974577158031,0.999959636155863,0.999935247721314,0.999896546418484,0.999832966195608,0.999722151431824,0.999493824525603,0.998921934526865,0.883229790142412
0.019012012012012,0.999994087463999,0.999988269026882,0.999977952003413,0.999965074887376,0.999944454300485,0.999910821746614,0.999857503237793,0.999770054727048,0.999617970489199,0.999305809973344,0.998529555167029,0.883121144560605
0.022014014014014,0.999992388443004,0.999984759782846,0.99997124881688,0.999954371903943,0.999927368396924,0.999883373041733,0.999813713898137,0.999699687700094,0.999501883663665,0.999097640086682,0.998100397171944,0.882993946456209
0.025016016016016,0.99999052391641,0.999980903948539,0.999963893045782,0.999942629108138,0.999908642344527,0.999853341038364,0.999765908758332,0.999623100268896,0.999376061273008,0.998873578377749,0.997644544352828,0.882848224394063
0.028018018018018,0.999988513460523,0.999976748954558,0.99995598270951,0.999930006671237,0.999888539633197,0.999821164109871,0.999714813831036,0.99954151217478,0.999242624433276,0.998637714501716,0.997171310827569,0.882684010543548
0.03102002002002,0.999986373810253,0.999972339027046,0.999947611362237,0.999916658868442,0.999867314843901,0.999787265339228,0.999661126962164,0.999456087169122,0.999103573480288,0.998393825256735,0.99668894060491,0.882501340980108
0.034022022022022,0.999984118786005,0.999967714182253,0.999938865731582,0.999902730091203,0.999845206992194,0.999752041375427,0.999605499378383,0.999367902289122,0.998960735872232,0.998145281426347,0.99620444877387,0.882300255832925
0.037024024024024,0.999981759477214,0.999962909693074,0.999929824169713,0.999888352071545,0.999822434793007,0.999715854509636,0.999548522774951,0.99927792709874,0.998815733183314,0.99789499715374,0.995723580855327,0.882080799336704
0.040026026026026,0.999979304579291,0.999957955949252,0.999920555839682,0.99987364223916,0.999799193745528,0.999679027801795,0.999490721602995,0.999187012100856,0.998669965125567,0.99764541515481,0.995250860492753,0.881843019830249
0.043028028028028,0.999976760799638,0.999952878617076,0.999911120515618,0.999858703057698,0.999775654813912,0.999641842882089,0.999432549871165,0.999095884948971,0.998524607566473,0.997398519539174,0.994789695626813,0.881586969727816
0.04603003003003,0.999974133272298,0.99994769900484,0.999901568857008,0.999843622148371,0.999751964412013,0.999604539938519,0.999374391595816,0.999005152814645,0.998380621156074,0.997155867920688,0.994342517216027,0.881312705477409
0.049032032032032,0.999971425943209,0.999942434551116,0.99989194301859,0.999828473000459,0.999728245379656,0.999567319367138,0.999316563988626,0.998915309238349,0.998238767283696,0.996918635365775,0.99391093027202,0.881020287513212
0.052034034034034,0.999968641905997,0.999937099368878,0.999882277471821,0.999813316080931,0.999704598651933,0.999530344584846,0.999259322523099,0.998826743930692,0.998099628481751,0.996687664088724,0.993495862910917,0.880709780205496
0.055036036036036,0.999965783680944,0.999931704795669,0.999872599935116,0.999798200180867,0.999681105358828,0.999493745564613,0.999202867133841,0.99873975422568,0.997963630933919,0.996463514303157,0.993097704363223,0.880381251809389
0.058038038038038,0.999962853437805,0.999926259915836,0.999862932333476,0.999783163867606,0.999657829139156,0.999457622731187,0.999147348942836,0.998654557159565,0.997831067315514,0.996246513046232,0.992716427033887,0.880034774412955
0.06104004004004,0.999959853167665,0.999920772034076,0.999853291730397,0.99976823694341,0.999634818501979,0.999422050937731,0.999092877051322,0.998571301416603,0.997702118722748,0.996036798983034,0.992351690708785,0.879670423884626
0.064042042042042,0.999956784810994,0.999915247089687,0.999843691194292,0.999753441840571,0.999612109114808,0.999387083321089,0.999039525069027,0.998490078621802,0.997576874896377,0.995834362129411,0.992002928998743,0.879288279819829
0.067044044044044,0.999953650349515,0.999909690008274,0.999834140577283,0.999738794907616,0.999589725937817,0.99935275490033,0.998987337166092,0.998410933658484,0.997455352300133,0.995639078109474,0.991669419308123,0.878888425486654
0.070046046046046,0.999950451869028,0.999904104992487,0.999824647196089,0.999724307560977,0.999567685155786,0.999319085837576,0.99893633352406,0.998333873842506,0.99733750987808,0.995450737023371,0.991350338228527,0.878470947770395
0.0730480480480481,0.999947191599501,0.999898495756339,0.999815216413229,0.999709987291308,0.999545995884414,0.999286084321957,0.998886515131331,0.998258876898127,0.99722326249877,0.995269067286163,0.991044804477682,0.878035937116833
0.0760500500500501,0.999943871937675,0.999892865709193,0.999805852122418,0.999695838524194,0.999524661645866,0.999253749068013,0.998837867917865,0.998185897758675,0.997112492212876,0.995093754953843,0.990751911476472,0.877583487474164
0.0790520520520521,0.999940495456469,0.999887218096063,0.999796557145491,0.999681863342005,0.999503681620815,0.999222071440676,0.998790366257101,0.998114874265242,0.997005057519955,0.994924459116392,0.990470751490595,0.877113696233517
0.0820540540540541,0.999937064904577,0.9998815561008,0.999787333550024,0.999668062077916,0.999483051692168,0.999191037232249,0.998743975883478,0.998045731865176,0.9969008008729,0.994760823941377,0.99020043303046,0.876626664168018
0.0850560560560561,0.999933583198867,0.999875882918311,0.999778182897463,0.999654433795312,0.999462765300069,0.999160628124167,0.998698656284764,0.99797838742526,0.996799554656661,0.994602487918372,0.989940092950337,0.876122495370393
0.0880580580580581,0.99993005341161,0.999870201801288,0.999769106431498,0.999640976666571,0.999442814129707,0.999130822869583,0.998654362632519,0.997912752276801,0.99670114586986,0.994449090801404,0.989688904443029,0.87560129718912
0.0910600600600601,0.999926478754022,0.999864516086239,0.999760105215796,0.99962768826499,0.999423188653646,0.999101598233129,0.998611047313425,0.997848734605343,0.996605399720541,0.994300278684966,0.989446081904109,0.875063180163147
0.0940620620620621,0.999922862557261,0.999858829202871,0.999751180229405,0.99961456578281,0.999403878549452,0.999072929722654,0.99856866112081,0.997786241289034,0.996512142325052,0.994155707586365,0.989210883446346,0.874508257955216
0.0970640640640641,0.999919208251678,0.999853144670243,0.999742332427168,0.999601606187142,0.999384873011819,0.99904479214506,0.998527154160562,0.997725179278997,0.996421202675187,0.994015045847669,0.988982611681554,0.873936647283829
0.100066066066066,0.999915536122474,0.999847503424376,0.99973363663738,0.99958892704294,0.999366355425384,0.999017471114817,0.998486967607156,0.997666230657795,0.996332277486999,0.993877748347677,0.988760221741596,0.873348468771786
0.103068068068068,0.99991255131749,0.999843468202653,0.999728184000338,0.99958158428602,0.999356476365376,0.999004018114285,0.998468724725869,0.997641938947474,0.996238818670742,0.99373320507757,0.988525805081246,0.872743884749408
0.10607007007007,0.999909483680185,0.999839320850289,0.999722579381397,0.999574036015052,0.999346319050267,0.998990182442078,0.998449955216641,0.99761692856001,0.996146392881839,0.99359092887716,0.988296054305482,0.87212297992325
0.109072072072072,0.999906333677505,0.999835061984138,0.999716823572561,0.99956628322297,0.99933588466651,0.998975965398379,0.998430660203797,0.997591199572876,0.996054975618536,0.993450804078088,0.988070625722225,0.871485882852034
0.112074074074074,0.999903101789238,0.999830692237782,0.999710917387113,0.999558326929328,0.999325174432619,0.998961368319718,0.998410840847489,0.997564752084885,0.995964535822034,0.993312710451189,0.987849184415227,0.870832724855556
0.115076076076076,0.999899788507957,0.999826212261452,0.999704861659495,0.999550168180148,0.999314189598996,0.99894639257889,0.998390498343959,0.997537586217686,0.995875037091098,0.993176525046917,0.987631406076458,0.870163639943853
0.118078078078078,0.999896394338977,0.999821622721941,0.999698657245179,0.999541808047751,0.999302931447764,0.998931039584862,0.998369633925827,0.997509702117279,0.995786438753657,0.993042123726313,0.987416978310326,0.869478764745424
0.12108008008008,0.999892919800298,0.999816924302517,0.999692305020542,0.999533247630597,0.999291401292588,0.998915310782687,0.998348248862369,0.997481099955562,0.995698696806204,0.992909382422193,0.9872056015092,0.868778238434601
0.124082082082082,0.999889365422556,0.999812117702834,0.999685805882731,0.999524488053113,0.999279600478495,0.998899207653407,0.998326344459805,0.997451779931886,0.995611764732207,0.992778178166751,0.986996989384084,0.868062202658115
0.127084084084084,0.999885731748968,0.999807203638841,0.999679160749534,0.999515530465522,0.999267530381687,0.998882731713954,0.998303922061587,0.997421742274641,0.995525594210646,0.992648389918242,0.98679086922066,0.867330801460948
0.130086086086086,0.999882019335274,0.999802182842686,0.999672370559234,0.999506376043659,0.999255192409354,0.998865884517055,0.998280983048694,0.997390987242859,0.995440135725573,0.992519899215885,0.986586981919073,0.866584181211532
0.133088088088088,0.999878228749686,0.999797056062627,0.999665436270474,0.999497025988799,0.99924258799948,0.998848667651125,0.998257528839924,0.99735951512783,0.995355339087007,0.992392590688778,0.986385081865733,0.865822490526366
0.13609009009009,0.999874360572822,0.999791824062923,0.999658358862112,0.999487481527463,0.999229718620642,0.998831082740165,0.998233560892194,0.997327326254738,0.995271153872967,0.992266352441486,0.986184936676792,0.865045880194124
0.139092092092092,0.999870415397651,0.999786487623745,0.999651139333073,0.999477743911233,0.999216585771811,0.998813131443649,0.998209080700839,0.997294420984312,0.99518752980166,0.992141076336062,0.985986326845671,0.864254503099317
0.142094094094094,0.999866393829433,0.999781047541064,0.999643778702196,0.999467814416561,0.999203190982147,0.998794815456416,0.998184089799911,0.997260799714486,0.995104417042188,0.992016658187641,0.985789045320948,0.863448514145587
0.145096096096096,0.99986229648565,0.999775504626555,0.999636278008089,0.999457694344568,0.999189535810783,0.998776136508552,0.998158589762485,0.997226462882075,0.995021766471353,0.99189299788841,0.985592897035788,0.8626280701787
0.148098098098098,0.99985812399595,0.999769859707483,0.999628638308962,0.999447385020842,0.999175621846615,0.998757096365276,0.99813258220096,0.997191410964463,0.994939529883457,0.991769999472634,0.985397698405882,0.861793329909289
0.1511001001001,0.999853877002075,0.999764113626599,0.999620860682477,0.999436887795243,0.999161450708084,0.998737696826814,0.998106068767369,0.997155644481291,0.994857660159267,0.991647571133605,0.985203276809382,0.860944453835444
0.154102102102102,0.999849556157797,0.999758267242026,0.999612946225582,0.999426204041683,0.999147024042948,0.998717939728279,0.998079051153674,0.997119163996162,0.994776111399674,0.991525625201724,0.985009470059411,0.860081604165189
0.157104104104104,0.99984516212885,0.999752321427149,0.999604896054346,0.999415335157923,0.999132343528061,0.998697826939542,0.998051531092082,0.997081970118347,0.994694839028986,0.991404078091548,0.984816125877389,0.859204944738916
0.160106106106106,0.999840695592857,0.999746277070495,0.99959671130379,0.999404282565355,0.999117410869138,0.998677360365099,0.998023510355344,0.997044063504497,0.99461379987218,0.991282850224388,0.98462310137349,0.858314640951859
0.163108108108108,0.999836157239264,0.99974013507562,0.999588393127721,0.99939304770878,0.999102227800523,0.998656541943941,0.997994990757058,0.997005444860355,0.994532952209971,0.991161865931994,0.984430262538988,0.857410859676639
0.16611011011011,0.999831547769261,0.999733896360988,0.999579942698552,0.999381632056192,0.999086796084948,0.998635373649416,0.997965974151978,0.996966114942474,0.994452255815069,0.991041053345943,0.984237483753966,0.856493769185974
0.169112112112112,0.999826867895712,0.999727561859849,0.999571361207132,0.999370037098544,0.999071117513294,0.998613857489083,0.997936462436314,0.996926074559933,0.994371671972567,0.990920344276606,0.984044647312884,0.855563539075585
0.172114114114114,0.999822118343079,0.999721132520114,0.999562649862559,0.999358264349528,0.999055193904338,0.998591995504575,0.997906457548028,0.996885324576049,0.994291163487032,0.990799674084834,0.983851642969656,0.854620340187381
0.175116116116116,0.999817299847344,0.999714609304233,0.999553809892006,0.999346315345331,0.99903902710451,0.998569789771448,0.997875961467142,0.996843865910089,0.994210694678543,0.990678981549021,0.98365836750328,0.853664344532969
0.178118118118118,0.999812413155929,0.999707993189061,0.999544842540532,0.99933419164441,0.999022618987634,0.998547242399027,0.997844976216024,0.996801699538975,0.994130231369605,0.990558208729662,0.983464724304524,0.852695725217547
0.18112012012012,0.999807459027616,0.999701285165735,0.999535749070893,0.999321894827243,0.999005971454672,0.99852435553026,0.997813503859691,0.996758826498985,0.994049740864607,0.990437300833138,0.983270622983811,0.851714656364229
0.184122122122122,0.99980243823247,0.999694486239538,0.999526530763356,0.999309426496091,0.998989086433461,0.998501131341549,0.997781546506095,0.996715247887449,0.993969191923272,0.99031620607613,0.983075979000119,0.850721313038871
0.187124124124124,0.99979735155175,0.999687597429765,0.999517188915503,0.999296788274749,0.998971965878448,0.998477572042594,0.997749106306409,0.996670964864424,0.993888554729328,0.990194875551766,0.982880713310502,0.849715871175439
0.190126126126126,0.999792199777826,0.999680619769586,0.999507724842036,0.999283981808298,0.998954611770421,0.998453679876231,0.997716185455317,0.996625978654375,0.993807800855443,0.990073263098357,0.982684752039654,0.848698507501959
0.193128128128128,0.999786983714096,0.999673554305912,0.99949813987458,0.999271008762854,0.998937026116238,0.998429457118254,0.997682786191286,0.996580290547832,0.993726903225345,0.989951325171406,0.982488026168826,0.847669399467123
0.19613013013013,0.999781704174894,0.999666402099249,0.999488435361479,0.999257870825305,0.998919210948546,0.998404906077248,0.997648910796848,0.996533901903038,0.993645836073863,0.989829020719373,0.982290471243325,0.84662872516758
0.199132132132132,0.999776361985403,0.999659164223562,0.999478612667597,0.999244569703059,0.998901168325504,0.99838002909441,0.997614561598865,0.996486814147579,0.993564574905548,0.989706311063571,0.982092027097749,0.845576663275951
0.202134134134134,0.999770957981565,0.999651841766125,0.999468673174111,0.999231107123778,0.9988829003305,0.99835482854337,0.997579740968798,0.996439028780003,0.993483096452401,0.989583159782435,0.981892637598115,0.844513392969639
0.205136136136136,0.999765493009986,0.999644435827379,0.999458618278297,0.999217484835114,0.998864409071862,0.998329306830005,0.997544451322965,0.996390547371417,0.993401378631172,0.989459532600333,0.981692250399998,0.843439093860443
0.208138138138138,0.999759967927848,0.99963694752078,0.999448449393329,0.999203704604439,0.998845696682567,0.998303466392249,0.997508695122795,0.996341371567061,0.993319400500595,0.989335397280986,0.981490816721816,0.842353945925035
0.21114014014014,0.999754383602805,0.999629377972653,0.999438167948055,0.999189768218574,0.99882676531995,0.998277309699904,0.997472474875075,0.996291503087874,0.993237142218864,0.989210723525533,0.981288291132401,0.841258129436343
0.214142142142142,0.999748740912895,0.999621728322038,0.99942777538679,0.999175677483517,0.998807617165401,0.998250839254441,0.997435793132194,0.996240943732019,0.993154585001612,0.989085482875207,0.981084631352025,0.840151824895857
0.217144144144144,0.999743040746435,0.999613999720533,0.999417273169092,0.999161434224161,0.998788254424072,0.998224057588799,0.997398652492372,0.996189695376403,0.993071711080586,0.988959648618563,0.980879798066071,0.839035212966907
0.220146146146146,0.999737284001926,0.999606193332142,0.999406662769543,0.999147040284019,0.998768679324562,0.998196967267182,0.99736105559989,0.99613775997816,0.992988503663188,0.988833195703153,0.980673754750582,0.837908474408943
0.223148148148148,0.99973147158795,0.999598310333117,0.999395945677529,0.999132497524934,0.998748894118621,0.998169570884849,0.997323005145308,0.996085139576112,0.992904946893003,0.98870610065155,0.980466467508929,0.83677179001285
0.22615015015015,0.999725604423062,0.999590351911796,0.999385123397008,0.999117807826803,0.99872890108083,0.998141871067899,0.997284503865676,0.9960318362922,0.992821025811406,0.988578341481558,0.980257904918915,0.83562534053732
0.229152152152152,0.999719683435695,0.99958231926844,0.99937419744629,0.99910297308728,0.998708702508289,0.998113870473056,0.997245554544734,0.99597785233289,0.99273672632034,0.988449897630498,0.980048037889621,0.834469306646316
0.232154154154154,0.999713709564046,0.999574213615073,0.999363169357801,0.999087995221486,0.998688300720304,0.998085571787448,0.997206160013111,0.995923189990545,0.992652035146281,0.988320749883377,0.979836839527387,0.833303868847652
0.235156156156156,0.999707683755971,0.999566036175313,0.999352040677854,0.99907287616172,0.99866769805806,0.998056977728375,0.997166323148504,0.995867851644766,0.99256693980546,0.988190880304815,0.979624285010308,0.832129207432707
0.238158158158158,0.999701606968877,0.999557788184208,0.999340812966414,0.999057617857158,0.998646896884301,0.998028091043085,0.997126046875851,0.995811839763698,0.99248142857033,0.988060272174541,0.979410351470694,0.830945502417309
0.24116016016016,0.99969548016961,0.999549470888062,0.999329487796862,0.999042222273554,0.998625899583002,0.997998914508534,0.997085334167505,0.995755156905313,0.9923954904373,0.98792890992631,0.979195017884973,0.829752933483793
0.244162162162162,0.999689304334339,0.999541085544269,0.999318066755755,0.999026691392939,0.99860470855904,0.99796945093115,0.997044188043378,0.995697805718636,0.99230911509572,0.987796779090082,0.978978264970525,0.828551679924264
0.247164164164164,0.999683080448449,0.999532633421134,0.999306551442587,0.99901102721332,0.998583326237858,0.997939703146585,0.997002611571093,0.995639788944958,0.99222229289812,0.987663866237286,0.978760075089008,0.827341920585075
0.250166166166166,0.99967680950642,0.999524115797703,0.999294943469545,0.998995231748368,0.998561755065132,0.997909674019468,0.996960607866112,0.995581109418995,0.992135014831661,0.98753015892904,0.978540432155713,0.826123833812544
