"Freq [GHz]","mag(S(2,1)) [] - rhe='5.5mm'","mag(S(2,1)) [] - rhe='6mm'","mag(S(2,1)) [] - rhe='6.5mm'","mag(S(2,1)) [] - rhe='7mm'","mag(S(2,1)) [] - rhe='7.5mm'","mag(S(2,1)) [] - rhe='8mm'","mag(S(2,1)) [] - rhe='8.5mm'","mag(S(2,1)) [] - rhe='9mm'","mag(S(2,1)) [] - rhe='9.5mm'","mag(S(2,1)) [] - rhe='10mm'","mag(S(2,1)) [] - rhe='10.5mm'","mag(S(2,1)) [] - rhe='11.5mm'"
0.001,0.999999948757761,1.00000000043372,1.00000010152559,1.00000022795944,1.00000044486636,1.000000808477,1.00000138953082,1.0000023642822,1.00000409912621,1.00000774865765,1.00001710826307,1.03078391417562
0.004002002002002,0.999999976211041,1.00000065850804,1.00000193984029,1.00000353209538,1.00000614583102,1.0000105134044,1.00001732829132,1.00002864227537,1.00004834542344,1.0000888083958,1.00018899005666,1.02982788263442
0.007004004004004,0.999999892688111,1.00000114766306,1.00000350205261,1.0000064232874,1.00001119481368,1.00001911656491,1.0000313910676,1.0000515775086,1.00008628237941,1.00015619393048,1.00032389552274,1.02775840351532
0.010006006006006,0.999999542094921,1.00000098507659,1.00000372484889,1.00000711631138,1.00001266623145,1.00002185709517,1.00003606421856,1.0000593226611,1.00009902596609,1.00017816876922,1.00036470889716,1.02464891484422
0.013008008008008,0.999998646769446,0.999999724071614,1.00000216331156,1.00000527018287,1.00001045251257,1.0000190923278,1.00003250774553,1.00005448609003,1.00009191320684,1.00016622033848,1.00033993603204,1.0206050389108
0.01601001001001,0.999997725325207,0.999998394508881,1.00000021682463,1.00000256784037,1.00000663093811,1.00001350936433,1.00002432153217,1.00004216029322,1.00007258921554,1.00013309629173,1.00027431060617,1.01575582968664
0.019012012012012,0.99999674211802,0.999996907459313,0.999997883089723,0.99999916059707,1.00000159239007,1.00000586576057,1.00001279066879,1.00002444135604,1.00004446663526,1.00008469433598,1.00017918585335,1.01024409597723
0.022014014014014,0.999995671716927,0.999995228342356,0.999995164591318,0.999995111177351,0.999995500354831,0.999996490817245,0.999998495798584,1.00000230820293,1.00000918111007,1.00002389418673,1.0000601562801,1.00421694069377
0.025016016016016,0.999994498153514,0.9999933427424,0.999992065902261,0.999990453345203,0.99998843918367,0.999985555467512,0.999981743171578,0.999976286159699,0.999967624614753,0.999952290513998,0.999920370186852,0.997817559623957
0.028018018018018,0.999993211868821,0.9999912449309,0.999988592868069,0.999985210006289,0.999980461812547,0.999973165143604,0.99996272180038,0.999946701822244,0.999920357471403,0.999870899462001,0.999761878078906,0.991178879431421
0.03102002002002,0.999991807354607,0.999988933426422,0.999984752295606,0.999979399778351,0.999971607698015,0.999959396058349,0.999941567014101,0.99991378906997,0.99986778331559,0.999780462189971,0.999586210418705,0.984419244375259
0.034022022022022,0.999990281653971,0.999986409070847,0.999980551805998,0.999973039690471,0.999961910373698,0.99994431087757,0.999918388512277,0.999877736673569,0.999810228624209,0.999681583617132,0.999394640348837,0.977640048702505
0.037024024024024,0.999988633452202,0.999983674114509,0.999975999748203,0.999966146388086,0.999951400905685,0.999927966018142,0.99989328361934,0.999838711029769,0.999747980943539,0.99957479917197,0.999188308874672,0.970925009896357
0.040026026026026,0.999986862526729,0.999980731745009,0.999971105136651,0.999958736695075,0.999940109557288,0.999910415220888,0.999866343842471,0.999796867481565,0.999681307966209,0.99946060796119,0.998968285996491,0.964340685854856
0.043028028028028,0.999984969409182,0.99997758582626,0.999965877598479,0.999950827873628,0.999928066605235,0.999891711336376,0.999837658180124,0.999752356048603,0.999610467168794,0.999339489341008,0.998735600301701,0.957937832863649
0.04603003003003,0.999982955172904,0.999974240743438,0.999960327324118,0.999942437730916,0.999915302724978,0.999871907196921,0.999807314757734,0.999705324264941,0.999535710550557,0.999211910880128,0.998491252329681,0.951753249486261
0.049032032032032,0.999980821295658,0.999970701303972,0.999954465018383,0.999933584642705,0.999901849143771,0.999851055995247,0.999775401558392,0.999655918450529,0.999457286722896,0.999078331692825,0.998236219346185,0.945811825524105
0.052034034034034,0.999978569568203,0.999966972669391,0.99994830185068,0.999924287529095,0.999887737661859,0.999829211384341,0.999742006643865,0.999604284104679,0.999375441523949,0.998939203228016,0.997971455536856,0.940128593923016
0.055036036036036,0.999976202031399,0.999963060304672,0.999941849403667,0.999914565801,0.999873000595227,0.999806427413772,0.999707218079976,0.999550565796604,0.999290417801469,0.998794968660013,0.997697889822034,0.934710654231577
0.058038038038038,0.99997372093137,0.999958969937704,0.999935119620047,0.999904439287742,0.999857670669848,0.999782758367421,0.999671123687785,0.999494906766791,0.999202454731674,0.998646061536785,0.997416422548748,0.929558893140637
0.06104004004004,0.999971128686287,0.999954707524643,0.999928124747375,0.999893928151841,0.999841780884938,0.999758258540944,0.999633810692489,0.999437448366232,0.999111786892679,0.998492904074577,0.997127921796455,0.92466946961104
0.064042042042042,0.99996842786074,0.999950279218649,0.999920877280835,0.99988305279472,0.999825364356008,0.999732981982564,0.99959536531446,0.999378329411892,0.999018643226933,0.998335905335873,0.996833219734871,0.920035060612318
0.067044044044044,0.999965621145109,0.999945691340501,0.999913389904037,0.999871833755744,0.999808454144611,0.999706982212391,0.99955587233096,0.999317685508476,0.998923245977564,0.998175459437541,0.996533109293532,0.915645881156177
0.070046046046046,0.999962711338268,0.999940950350136,0.999905675427888,0.999860291606236,0.99979108307946,0.999680311930469,0.999515414627514,0.999255648369306,0.998825809653217,0.99801194388031,0.996228341291266,0.911490501905911
0.0730480480480481,0.999959701332488,0.999936062818524,0.999897746727634,0.999848446839645,0.999773283572228,0.99965302272069,0.999474072751988,0.999192345158322,0.998726540056642,0.997845718054946,0.995919622101965,0.907556491661045
0.0760500500500501,0.99995659409982,0.999931035399493,0.999889616678181,0.99983631975878,0.99975508743045,0.999625164755725,0.999431924480556,0.999127897868048,0.998625633399504,0.997677121956675,0.995607611885456,0.903830912443502
0.0790520520520521,0.999953392679413,0.999925874801257,0.999881298087799,0.999823930360827,0.999736525669439,0.999596786506873,0.999389044402128,0.999062422743496,0.99852327551706,0.997506475123117,0.995292923380507,0.900300693221857
0.0820540540540541,0.999950100165445,0.999920587757492,0.999872803630343,0.999811298220744,0.999717628324724,0.99956793446177,0.999345503525977,0.998996029758525,0.998419641190143,0.997334075799587,0.994976121235578,0.896952905530323
0.0850560560560561,0.999946719695397,0.999915180997852,0.999864145776117,0.999798442373576,0.999698424266265,0.999538652852299,0.999301368915948,0.998928822148611,0.99831489357738,0.997160200327594,0.99465772183897,0.893774961042401
0.0880580580580581,0.999943254438509,0.999909661217859,0.99985533672149,0.99978538119615,0.99967894101551,0.999508983394513,0.999256703353599,0.998860896002087,0.998209183757186,0.996985102746704,0.994338193601282,0.890754747958446
0.0910600600600601,0.999939707584285,0.999904035048141,0.999846388317438,0.99977213228858,0.999659204566217,0.999478965042008,0.999211565031829,0.998792339910384,0.998102650376657,0.996809014595985,0.994017957638242,0.887880720093417
0.0940620620620621,0.999936082330956,0.99989830902299,0.999837311997098,0.999758712355979,0.999639239209819,0.999448633753867,0.999166007279861,0.998723234676717,0.997995419402633,0.996632144898735,0.993697388800052,0.885141949917364
0.0970640640640641,0.999932381873848,0.999892489548228,0.999828118702505,0.999745137090753,0.999619067366054,0.999418022278033,0.999120078319965,0.998653653081684,0.997887603968865,0.996454680312547,0.993376816993548,0.882528154543204
0.100066066066066,0.999928626832753,0.999886621472504,0.999818895952968,0.999731547925633,0.999598917661998,0.999387505625149,0.999074387253302,0.998584605048923,0.997779368111167,0.996276849663124,0.993056582951461,0.880029697741881
0.103068068068068,0.999925569080683,0.999882367724732,0.999812967898545,0.999723416007482,0.999587776947054,0.999372011536122,0.999053400012162,0.998556963361999,0.997673316178468,0.996101262799987,0.992738854216019,0.877637393060727
0.10607007007007,0.999922426525492,0.999877995942576,0.999806875008232,0.999715057191902,0.999576323615446,0.999356078341188,0.999031807753566,0.99852849611835,0.99756646160422,0.995924906344784,0.992421064697571,0.875343030367225
0.109072072072072,0.99991919965002,0.999873506790499,0.999800618176774,0.999706472638528,0.999564559105769,0.99933970767946,0.999009611858157,0.998499202841817,0.997458897219159,0.995747930623242,0.992103464539182,0.873138839287954
0.112074074074074,0.999915888950356,0.99986890095093,0.999794198322874,0.999697663537981,0.999552484895375,0.999322901235926,0.998986813752259,0.99846908307992,0.997350709873222,0.995570473720397,0.99178627684177,0.871017618768428
0.115076076076076,0.999912494935787,0.999864179124175,0.999787616389046,0.999688631111672,0.999540102500159,0.99930566074135,0.998963414908338,0.998438136406717,0.997241980532113,0.99539266188139,0.991469699088434,0.86897270503707
0.118078078078078,0.999909018128747,0.999859342028316,0.999780873341463,0.999679376611608,0.99952741347434,0.999287987972158,0.998939416845472,0.998406362425699,0.997132784401934,0.995214609954309,0.991153904608013,0.866997938473908
0.12108008008008,0.999905459064758,0.999854390399115,0.999773970169808,0.999669901320187,0.999514419410236,0.99926988475033,0.998914821129834,0.99837376077273,0.997023191077901,0.99503642186598,0.990839044057122,0.865087630380747
0.124082082082082,0.999901818292376,0.999849324989917,0.999766907887114,0.999660206549989,0.999501121938033,0.99925135294328,0.998889629375167,0.998340331119007,0.996913264713314,0.994858191122393,0.990525246902713,0.863236530359935
0.127084084084084,0.999898096373132,0.99984414657154,0.99975968752961,0.999650293643568,0.999487522725554,0.999232394463739,0.998863843243276,0.99830607317406,0.996803064205239,0.994680001326244,0.990212622889921,0.861439794788298
0.130086086086086,0.999894293881474,0.999838855932172,0.999752310156552,0.99964016397323,0.999473623478013,0.99921301126963,0.99883746444452,0.998270986688775,0.996692643393582,0.994501926704913,0.989901263482418,0.85969295670636
0.133088088088088,0.999890411404702,0.999833453877265,0.999744776850057,0.999629818940814,0.99945942593777,0.999193205363941,0.998810494738306,0.998235071458436,0.9965820512705,0.994324032642956,0.989591243264782,0.857991897318496
0.13609009009009,0.99988644954291,0.999827941229421,0.999737088714933,0.999619259977465,0.999444931884084,0.999172978794591,0.998782935933586,0.998198327325791,0.996471332197384,0.994146376213949,0.989282621298488,0.856332819207704
0.139092092092092,0.999882408908919,0.99982231882828,0.999729246878505,0.999608488543398,0.999430143132846,0.999152333654298,0.998754789889366,0.998160754184138,0.996360526126887,0.993969006707248,0.988975442424976,0.854712221301687
0.142094094094094,0.999878290128212,0.999816587530406,0.999721252490434,0.999597506127668,0.999415061536326,0.999131272080436,0.998726058515201,0.998122351980418,0.996249668827756,0.993791966145882,0.988669738510885,0.853126875578993
0.145096096096096,0.999874093838868,0.999810748209167,0.999713106722538,0.999586314247927,0.9993996889829,0.999109796254895,0.998696743771706,0.99808312071832,0.996138792110487,0.993615289792426,0.988365529632004,0.851573805470529
0.148098098098098,0.999869820691492,0.999804801754615,0.999704810768606,0.999574914450175,0.99938402739678,0.999087908403927,0.99866684767106,0.998043060461402,0.996027924052034,0.993439006640258,0.98806282519375,0.850050265889263
0.1511001001001,0.999865471349146,0.999798749073363,0.999696365844209,0.999563308308515,0.999368078737733,0.999065610797998,0.998636372277515,0.998002171336201,0.995917089218065,0.993263139888123,0.987761624987027,0.848553724806557
0.154102102102102,0.999861046487274,0.999792591088461,0.999687773186508,0.999551497424896,0.999351845000798,0.999042905751631,0.998605319707902,0.997960453535359,0.99580630888148,0.993087707396401,0.987461920179242,0.847081846285317
0.157104104104104,0.999856546793635,0.999786328739268,0.999679034054058,0.999539483428852,0.999335328215999,0.999019795623243,0.998573692132135,0.997917907320737,0.995695601236063,0.992912722123852,0.98716369424102,0.845632474876252
0.160106106106106,0.999851972968223,0.999779962981321,0.999670149726612,0.999527267977244,0.999318530448049,0.998996282814978,0.998541491773721,0.99787453302653,0.995584981604383,0.992738192544017,0.986866923809736,0.844203621282873
0.163108108108108,0.999847325723192,0.999773494786203,0.999661121504911,0.999514852753984,0.999301453796054,0.998972369772541,0.998508720910256,0.997830331062365,0.995474462639187,0.992564123040737,0.986571579491534,0.842793449202446
0.16611011011011,0.999842605782779,0.99976692514141,0.999651950710487,0.999502239469773,0.999284100393204,0.99894805898502,0.998475381873934,0.997785301916401,0.995364054517696,0.992390514282542,0.986277626603849,0.841400263253186
0.169112112112112,0.999837813883223,0.99976025505021,0.999642638685448,0.999489429861813,0.99926647240647,0.998923352984705,0.998441477052036,0.997739446158399,0.995253765128357,0.992217363575889,0.98598502586076,0.840022497902169
0.172114114114114,0.999832950772687,0.999753485531509,0.999633186792269,0.999476425693537,0.999248572036287,0.998898254346909,0.998407008887429,0.997692764442788,0.995143600249718,0.992044665197426,0.985693734003734,0.838658707313104
0.175116116116116,0.999828017211173,0.999746617619706,0.999623596413573,0.999463228754315,0.999230401516234,0.998872765689772,0.998371979879054,0.997645257511698,0.995033563721205,0.991872410705628,0.985403704380436,0.837307556038226
0.178118118118118,0.999823013970439,0.999739652364549,0.999613868951914,0.999449840859171,0.999211963112711,0.998846889674071,0.998336392582411,0.99759692619798,0.99492365760568,0.991700589232285,0.985114887474403,0.835967810483719
0.18112012012012,0.999817941833912,0.999732590830989,0.999604005829558,0.999436263848487,0.999193259124612,0.998820629003018,0.998300249610038,0.99754777142819,0.994813882343735,0.991529187754413,0.984827231388397,0.834638331083238
0.184122122122122,0.999812801596603,0.999725434099032,0.999594008488248,0.999422499587703,0.999174291882989,0.99879398642206,0.998263553631983,0.99749779422555,0.994704236899742,0.991358191347282,0.984540682284274,0.833318065119101
0.187124124124124,0.999807594065017,0.99971818326359,0.999583878388988,0.999408549967023,0.999155063750716,0.998766964718664,0.99822630737627,0.997446995712871,0.99459471889977,0.991187583419275,0.984255184782134,0.832006040135523
0.190126126126126,0.999802320057063,0.999710839434321,0.999573617011803,0.999394416901101,0.999135577122144,0.998739566722107,0.99818851362936,0.997395377115443,0.994485324761482,0.991017345929378,0.983970682321523,0.830701357892827
0.193128128128128,0.999796980401963,0.999703403735485,0.999563225855505,0.999380102328737,0.999115834422751,0.99871179530325,0.998150175236599,0.997342939763885,0.994376049816214,0.990847459588093,0.983687117487307,0.829403188815823
0.19613013013013,0.999791575940156,0.999695877305774,0.999552706437458,0.999365608212561,0.999095838108796,0.998683653374322,0.998111295102663,0.997289685096956,0.994266888423441,0.990677904042639,0.983404432302794,0.828110766893553
0.199132132132132,0.999786107523205,0.999688261298162,0.999542060293338,0.999350936538717,0.999075590666956,0.998655143888678,0.99807187619199,0.997235614664316,0.994157834077888,0.990508658047239,0.983122568492551,0.826823384991299
0.202134134134134,0.999780576013702,0.999680556879736,0.999531288976885,0.999336089316543,0.999055094613967,0.998626269840572,0.998031921529201,0.99718073012925,0.994048879509524,0.990339699619367,0.982841467717249,0.825540390539158
0.205136136136136,0.999774982285165,0.999672765231539,0.99952039405966,0.999321068578244,0.999034352496255,0.998597034264907,0.997991434199517,0.997125033271328,0.993940016776753,0.990171006182756,0.982561071782762,0.824261181564648
0.208138138138138,0.999769327221943,0.999664887548395,0.999509377130793,0.999305876378565,0.999013366889568,0.998567440236995,0.997950417349157,0.997068525989026,0.993831237353066,0.990002554697993,0.982281322825596,0.822985203039693
0.21114014014014,0.999763611719111,0.999656925038747,0.999498239796733,0.999290514794457,0.998992140398601,0.998537490872296,0.99790887418573,0.997011210302282,0.993722532207465,0.989834321781479,0.982002163476634,0.821711943514975
0.214142142142142,0.999757836682372,0.999648878924485,0.999486983680991,0.999274985924745,0.998970675656612,0.998507189326163,0.997866807978615,0.996953088355005,0.993613891878964,0.989666283813527,0.98172353700504,0.820440932017054
0.217144144144144,0.999752003027944,0.999640750440771,0.999475610423882,0.999259291889785,0.998948975325041,0.998476538793578,0.99782422205932,0.996894162417509,0.993505306545452,0.989498417036329,0.981445387444031,0.819171735185868
0.220146146146146,0.999746111682464,0.999632540835866,0.999464121682265,0.999243434831124,0.998927042093124,0.998445542508872,0.997781119821839,0.996834434888902,0.993396766087242,0.989330697642496,0.981167659700162,0.817903954632227
0.223148148148148,0.999740163582872,0.999624251370951,0.999452519129277,0.999227416911151,0.998904878677493,0.99841420374546,0.997737504722989,0.996773908299395,0.993288260145574,0.989163101854848,0.980890299647575,0.816637224496733
0.22615015015015,0.999734159676304,0.999615883319951,0.999440804454073,0.999211240312752,0.998882487821784,0.998382525815546,0.99769338028273,0.996712585312552,0.993179778176386,0.98899560599809,0.980613254208643,0.815371209193243
0.229152152152152,0.999728100919983,0.99960743796935,0.999428979361547,0.999194907238949,0.998859872296237,0.998350512069841,0.997648750084475,0.996650468727467,0.993071309499612,0.988828186562983,0.980336471422259,0.814105601321468
0.232154154154154,0.999721988281105,0.999598916618009,0.999417045572068,0.999178419912553,0.998837034897284,0.998318165897259,0.99760361777538,0.996587561480874,0.9929628433443,0.988660820263589,0.980059900500973,0.812840119734707
0.235156156156156,0.999715822736722,0.999590320576982,0.999405004821207,0.9991617805758,0.998813978447145,0.998285490724623,0.997557987066621,0.996523866649179,0.992854368889795,0.988493484088117,0.979783491878067,0.811574507749932
0.238158158158158,0.999709605273633,0.999581651169327,0.999392858859451,0.999144991489985,0.998790705793412,0.998252490016346,0.997511861733654,0.996459387450414,0.992745875303256,0.988326155343894,0.979507197245567,0.810308531488583
0.24116016016016,0.999703336888256,0.999572909729915,0.999380609451934,0.999128054935105,0.998767219808631,0.998219167274125,0.997465245616451,0.996394127246122,0.992637351773732,0.988158811696926,0.979230969584122,0.809041978337473
0.244162162162162,0.999697018586518,0.999564097605242,0.999368258378149,0.99911097320948,0.99874352338988,0.998185526036608,0.997418142619727,0.996328089543151,0.992528787543051,0.987991431206501,0.978954763185586,0.807774655520097
0.247164164164164,0.99969065138373,0.999555216153233,0.999355807431666,0.999093748629388,0.998719619458343,0.998151569879074,0.997370556713142,0.996261277995378,0.992420171933713,0.987823992355253,0.978678533669094,0.806506388769528
0.250166166166166,0.999684236304466,0.999546266743047,0.999343258419846,0.99907638352869,0.998695510958881,0.99811730241309,0.997322491931486,0.996193696405339,0.99231149437403,0.987656474075064,0.978402237991313,0.805237021094828
